Circuit: * D:\B.Tech EE1 IITD\SEM-5\ELL304\Assignments\A-2\Draft1.asc

Ignoring BSIM parameter XL
Ignoring BSIM parameter XW
Warning: Pd = 0 is less than W.
Warning: Ps = 0 is less than W.
Direct Newton iteration for .op point succeeded.
Semiconductor Device Operating Points:
                        --- BSIM3 MOSFETS ---
Name:        m1
Model:      cmosn
Id:        9.85e-05
Vgs:       6.65e-01
Vds:       4.21e-01
Vbs:       0.00e+00
Vth:       4.91e-01
Vdsat:     1.26e-01
Gm:        9.84e-04
Gds:       3.66e-05
Gmb        2.48e-04
Cbd:       0.00e+00
Cbs:       0.00e+00
Cgsov:     3.29e-15
Cgdov:     3.29e-15
Cgbov:     1.66e-19
dQgdVgb:   1.14e-14
dQgdVdb:  -3.27e-15
dQgdVsb:  -7.71e-15
dQddVgb:  -5.15e-15
dQddVdb:   3.28e-15
dQddVsb:   2.39e-15
dQbdVgb:  -1.08e-15
dQbdVdb:  -3.37e-18
dQbdVsb:  -3.49e-16



Date: Fri Nov  8 23:11:35 2024
Total elapsed time: 0.085 seconds.

tnom = 27
temp = 27
method = trap
totiter = 6
traniter = 0
tranpoints = 0
accept = 0
rejected = 0
matrix size = 8
fillins = 0
solver = Normal
Avg thread counts: 12.0/0.0/12.0/12.0
Matrix Compiler1: 362 bytes object code size
Matrix Compiler2: 594 bytes object code size
