Circuit: * D:\B.Tech EE1 IITD\SEM-5\ELL304\Project\Project.asc

c3: both pins shorted together -- ignoring.
Ignoring BSIM parameter XL
Ignoring BSIM parameter XW
Ignoring BSIM parameter XL
Ignoring BSIM parameter XW
WARNING: Node N002 is floating.
WARNING: Node N004 is floating.

Warning: Pd = 0 is less than W.
Warning: Ps = 0 is less than W.
Warning: Pd = 0 is less than W.
Warning: Ps = 0 is less than W.
Warning: Pd = 0 is less than W.
Warning: Ps = 0 is less than W.
Direct Newton iteration for .op point succeeded.
Semiconductor Device Operating Points:
                        --- BSIM3 MOSFETS ---
Name:        m2          m3          m4          m5          m1
Model:      cmosp       cmosp       cmosp       cmosp       cmosn
Id:       -5.39e-09   -5.39e-09   -1.03e-12   -1.03e-12    1.03e-12
Vgs:      -1.38e-01   -1.35e-01    0.00e+00    0.00e+00   -7.83e-01
Vds:      -6.75e-01   -1.13e+00   -6.24e-04   -6.24e-04    1.02e+00
Vbs:      -1.38e-01   -1.35e-01    0.00e+00    0.00e+00    0.00e+00
Vth:      -4.01e-01   -4.00e-01   -4.43e-01   -4.43e-01    1.15e+00
Vdsat:    -3.50e-02   -3.50e-02   -3.58e-02   -3.58e-02    2.72e-02
Gm:        1.35e-07    1.35e-07    2.68e-11    2.68e-11    4.42e-24
Gds:       1.15e-09    1.07e-09    1.63e-09    1.63e-09    1.67e-25
Gmb        4.15e-08    4.16e-08    1.03e-11    1.03e-11    2.61e-24
Cbd:       0.00e+00    0.00e+00    0.00e+00    0.00e+00    0.00e+00
Cbs:       0.00e+00    0.00e+00    0.00e+00    0.00e+00    0.00e+00
Cgsov:     1.27e-14    1.27e-14    1.27e-14    1.27e-14    1.65e-14
Cgdov:     1.27e-14    1.27e-14    1.27e-14    1.27e-14    1.65e-14
Cgbov:     4.41e-19    4.41e-19    4.41e-19    4.41e-19    1.62e-20
dQgdVgb:   4.58e-14    4.58e-14    4.59e-14    4.59e-14    3.56e-14
dQgdVdb:  -1.27e-14   -1.27e-14   -1.27e-14   -1.27e-14   -1.65e-14
dQgdVsb:  -1.79e-14   -1.78e-14   -1.27e-14   -1.27e-14   -1.65e-14
dQddVgb:  -1.27e-14   -1.27e-14   -1.27e-14   -1.27e-14   -1.65e-14
dQddVdb:   1.27e-14    1.27e-14    1.27e-14    1.27e-14    1.65e-14
dQddVsb:   3.95e-17    3.71e-17    1.62e-19    1.62e-19   -9.37e-33
dQbdVgb:  -2.03e-14   -2.03e-14   -2.05e-14   -2.05e-14   -2.73e-15
dQbdVdb:   1.97e-20    2.05e-20   -2.90e-19   -2.90e-19    0.00e+00
dQbdVsb:   5.09e-15    5.01e-15    7.42e-19    7.42e-19    9.10e-20

Name:        m6          m7          m8          m9
Model:      cmosn       cmosn       cmosn       cmosn
Id:        1.03e-12    1.13e-13    1.13e-13    0.00e+00
Vgs:       2.00e-01    1.03e-01    2.00e-01    5.38e-06
Vds:       9.83e-01    1.03e-01    9.74e-02    0.00e+00
Vbs:       0.00e+00    0.00e+00    0.00e+00    0.00e+00
Vth:       1.15e+00    1.16e+00    1.16e+00    1.16e+00
Vdsat:     2.72e-02    2.72e-02    2.72e-02    2.71e-02
Gm:        8.44e-13    1.19e-14    1.52e-13    0.00e+00
Gds:       3.26e-14    2.70e-15    3.62e-14    5.33e-16
Gmb        3.72e-13    5.47e-15    6.73e-14    0.00e+00
Cbd:       0.00e+00    0.00e+00    0.00e+00    0.00e+00
Cbs:       0.00e+00    0.00e+00    0.00e+00    0.00e+00
Cgsov:     1.65e-14    1.65e-14    1.65e-14    1.23e-14
Cgdov:     1.65e-14    1.65e-14    1.65e-14    1.23e-14
Cgbov:     1.62e-20    1.62e-20    1.62e-20    1.62e-20
dQgdVgb:   3.40e-14    3.42e-14    3.40e-14    2.58e-14
dQgdVdb:  -1.65e-14   -1.65e-14   -1.65e-14   -1.23e-14
dQgdVsb:  -1.65e-14   -1.65e-14   -1.65e-14   -1.23e-14
dQddVgb:  -1.65e-14   -1.65e-14   -1.65e-14   -1.23e-14
dQddVdb:   1.65e-14    1.65e-14    1.65e-14    1.23e-14
dQddVsb:   1.62e-26    1.06e-27    1.38e-26    2.97e-29
dQbdVgb:  -1.12e-15   -1.25e-15   -1.12e-15   -1.07e-15
dQbdVdb:   3.60e-29   -1.10e-29   -1.77e-28   -7.91e-29
dQbdVsb:   3.74e-20    4.16e-20    3.74e-20    3.58e-20



Date: Tue Nov 19 14:40:16 2024
Total elapsed time: 0.583 seconds.

tnom = 27
temp = 27
method = trap
totiter = 45
traniter = 0
tranpoints = 0
accept = 0
rejected = 0
matrix size = 15
fillins = 2
solver = Normal
Avg thread counts: 12.0/0.0/12.0/12.0
Matrix Compiler1: 872 bytes object code size
Matrix Compiler2:      99 opcodes
